date Tue Jun 16 10:37:08.184 am 2026
base hex  timestamps absolute
internal events logged
// version 8.5.0
Begin Triggerblock Tue Jun 16 10:37:08.184 am 2026
   0.000000 Start of measurement
   0.000000 1  100             Rx   d 3 0A 6D 6B   Length = 0 BitCount = 0 ID = 256
   0.000000 1  100             Rx   d 3 0A 02 6B   Length = 0 BitCount = 0 ID = 256
   0.015188 1  200             Rx   d 3 0A 6D 6B   Length = 0 BitCount = 0 ID = 512
   0.015188 1  200             Rx   d 3 0A 02 6B   Length = 0 BitCount = 0 ID = 512
   0.037392 1  300             Rx   d 3 0A 6D 6B   Length = 0 BitCount = 0 ID = 768
   0.037392 1  300             Rx   d 3 0A 02 6B   Length = 0 BitCount = 0 ID = 768
   0.037392 1  400             Rx   d 3 0A 6D 6B   Length = 0 BitCount = 0 ID = 1024
   0.037392 1  400             Rx   d 3 0A 02 6B   Length = 0 BitCount = 0 ID = 1024
   0.037392 1  500             Rx   d 3 0A 6D 6B   Length = 0 BitCount = 0 ID = 1280
   0.046441 1  500             Rx   d 3 0A 02 6B   Length = 0 BitCount = 0 ID = 1280
   0.062301 1  600             Rx   d 3 0A 6D 6B   Length = 0 BitCount = 0 ID = 1536
  10.882434 1  500             Rx   d 5 F3 AB 01 00 6B   Length = 0 BitCount = 0 ID = 1280
  10.897928 1  500             Rx   d 3 F3 02 6B   Length = 0 BitCount = 0 ID = 1280
  10.901959 1  400             Rx   d 5 F3 AB 01 00 6B   Length = 0 BitCount = 0 ID = 1024
  10.913946 1  400             Rx   d 3 F3 02 6B   Length = 0 BitCount = 0 ID = 1024
  10.929511 1  200             Rx   d 5 F3 AB 01 00 6B   Length = 0 BitCount = 0 ID = 512
  10.929511 1  200             Rx   d 3 F3 02 6B   Length = 0 BitCount = 0 ID = 512
  10.942547 1  300             Rx   d 5 F3 AB 01 00 6B   Length = 0 BitCount = 0 ID = 768
  10.944841 1  300             Rx   d 3 F3 02 6B   Length = 0 BitCount = 0 ID = 768
  10.961708 1  100             Rx   d 5 F3 AB 01 00 6B   Length = 0 BitCount = 0 ID = 256
  10.976326 1  100             Rx   d 3 F3 02 6B   Length = 0 BitCount = 0 ID = 256
  11.114837 1  500             Rx   d 2 36 6B   Length = 0 BitCount = 0 ID = 1280
  11.131259 1  500             Rx   d 7 36 01 00 00 00 04 6B   Length = 0 BitCount = 0 ID = 1280
  11.196296 1  500             Rx   d 2 36 6B   Length = 0 BitCount = 0 ID = 1280
  11.209440 1  500             Rx   d 7 36 01 00 00 00 04 6B   Length = 0 BitCount = 0 ID = 1280
  11.264121 1  500             Rx   d 2 36 6B   Length = 0 BitCount = 0 ID = 1280
  11.273246 1  500             Rx   d 7 36 01 00 00 00 04 6B   Length = 0 BitCount = 0 ID = 1280
  11.330969 1  500             Rx   d 2 36 6B   Length = 0 BitCount = 0 ID = 1280
  11.335555 1  500             Rx   d 7 36 01 00 00 00 04 6B   Length = 0 BitCount = 0 ID = 1280
  11.427548 1  500             Rx   d 2 36 6B   Length = 0 BitCount = 0 ID = 1280
  11.427548 1  500             Rx   d 7 36 01 00 00 00 04 6B   Length = 0 BitCount = 0 ID = 1280
  11.465081 1  500             Rx   d 2 36 6B   Length = 0 BitCount = 0 ID = 1280
  11.473860 1  500             Rx   d 7 36 01 00 00 00 04 6B   Length = 0 BitCount = 0 ID = 1280
  11.531483 1  500             Rx   d 2 36 6B   Length = 0 BitCount = 0 ID = 1280
  11.536474 1  500             Rx   d 7 36 01 00 00 00 04 6B   Length = 0 BitCount = 0 ID = 1280
  11.629379 1  500             Rx   d 2 36 6B   Length = 0 BitCount = 0 ID = 1280
  11.629379 1  500             Rx   d 7 36 01 00 00 00 04 6B   Length = 0 BitCount = 0 ID = 1280
  11.665683 1  500             Rx   d 2 36 6B   Length = 0 BitCount = 0 ID = 1280
  11.675953 1  500             Rx   d 7 36 01 00 00 00 04 6B   Length = 0 BitCount = 0 ID = 1280
  11.732667 1  500             Rx   d 2 36 6B   Length = 0 BitCount = 0 ID = 1280
  11.737667 1  500             Rx   d 7 36 01 00 00 00 04 6B   Length = 0 BitCount = 0 ID = 1280
  11.799637 1  500             Rx   d 2 36 6B   Length = 0 BitCount = 0 ID = 1280
  11.816674 1  500             Rx   d 7 36 01 00 00 00 04 6B   Length = 0 BitCount = 0 ID = 1280
  11.867444 1  500             Rx   d 2 36 6B   Length = 0 BitCount = 0 ID = 1280
  11.867444 1  500             Rx   d 7 36 01 00 00 00 04 6B   Length = 0 BitCount = 0 ID = 1280
  11.933378 1  500             Rx   d 2 36 6B   Length = 0 BitCount = 0 ID = 1280
  11.941399 1  500             Rx   d 7 36 01 00 00 00 04 6B   Length = 0 BitCount = 0 ID = 1280
  12.001640 1  500             Rx   d 2 36 6B   Length = 0 BitCount = 0 ID = 1280
  12.001640 1  500             Rx   d 7 36 01 00 00 00 04 6B   Length = 0 BitCount = 0 ID = 1280
  12.067645 1  500             Rx   d 2 36 6B   Length = 0 BitCount = 0 ID = 1280
  12.078652 1  500             Rx   d 7 36 01 00 00 00 04 6B   Length = 0 BitCount = 0 ID = 1280
  12.135041 1  500             Rx   d 2 36 6B   Length = 0 BitCount = 0 ID = 1280
  12.141037 1  500             Rx   d 7 36 01 00 00 00 04 6B   Length = 0 BitCount = 0 ID = 1280
  12.167595 1  400             Rx   d 2 36 6B   Length = 0 BitCount = 0 ID = 1024
  12.172189 1  400             Rx   d 7 36 01 00 00 00 04 6B   Length = 0 BitCount = 0 ID = 1024
  12.240326 1  400             Rx   d 2 36 6B   Length = 0 BitCount = 0 ID = 1024
  12.249496 1  400             Rx   d 7 36 01 00 00 00 04 6B   Length = 0 BitCount = 0 ID = 1024
  12.307524 1  400             Rx   d 2 36 6B   Length = 0 BitCount = 0 ID = 1024
  12.312458 1  400             Rx   d 7 36 01 00 00 00 04 6B   Length = 0 BitCount = 0 ID = 1024
  12.336845 1  200             Rx   d 2 36 6B   Length = 0 BitCount = 0 ID = 512
  12.344009 1  200             Rx   d 7 36 00 00 00 00 00 6B   Length = 0 BitCount = 0 ID = 512
  12.410037 1  200             Rx   d 2 36 6B   Length = 0 BitCount = 0 ID = 512
  12.421793 1  200             Rx   d 7 36 00 00 00 00 00 6B   Length = 0 BitCount = 0 ID = 512
  12.476528 1  200             Rx   d 2 36 6B   Length = 0 BitCount = 0 ID = 512
  12.483202 1  200             Rx   d 7 36 00 00 00 00 00 6B   Length = 0 BitCount = 0 ID = 512
  12.506033 1  300             Rx   d 2 36 6B   Length = 0 BitCount = 0 ID = 768
  12.514339 1  300             Rx   d 7 36 01 00 00 00 02 6B   Length = 0 BitCount = 0 ID = 768
  12.578506 1  300             Rx   d 2 36 6B   Length = 0 BitCount = 0 ID = 768
  12.591873 1  300             Rx   d 7 36 01 00 00 00 02 6B   Length = 0 BitCount = 0 ID = 768
  12.645519 1  300             Rx   d 2 36 6B   Length = 0 BitCount = 0 ID = 768
  12.654332 1  300             Rx   d 7 36 01 00 00 00 02 6B   Length = 0 BitCount = 0 ID = 768
  12.674231 1  100             Rx   d 2 36 6B   Length = 0 BitCount = 0 ID = 256
  12.685179 1  100             Rx   d 7 36 01 00 00 00 02 6B   Length = 0 BitCount = 0 ID = 256
  12.779526 1  100             Rx   d 2 36 6B   Length = 0 BitCount = 0 ID = 256
  12.779526 1  100             Rx   d 7 36 01 00 00 00 02 6B   Length = 0 BitCount = 0 ID = 256
  12.815015 1  100             Rx   d 2 36 6B   Length = 0 BitCount = 0 ID = 256
  12.825561 1  100             Rx   d 7 36 01 00 00 00 02 6B   Length = 0 BitCount = 0 ID = 256
  12.841514 1  100             Rx   d 2 36 6B   Length = 0 BitCount = 0 ID = 256
  12.857518 1  100             Rx   d 7 36 01 00 00 00 02 6B   Length = 0 BitCount = 0 ID = 256
  12.868452 1  200             Rx   d 2 36 6B   Length = 0 BitCount = 0 ID = 512
  12.873545 1  200             Rx   d 7 36 00 00 00 00 00 6B   Length = 0 BitCount = 0 ID = 512
  12.895322 1  300             Rx   d 2 36 6B   Length = 0 BitCount = 0 ID = 768
  12.904934 1  300             Rx   d 7 36 01 00 00 00 02 6B   Length = 0 BitCount = 0 ID = 768
  12.922489 1  400             Rx   d 2 36 6B   Length = 0 BitCount = 0 ID = 1024
  12.935526 1  400             Rx   d 7 36 01 00 00 00 04 6B   Length = 0 BitCount = 0 ID = 1024
  12.950016 1  500             Rx   d 2 36 6B   Length = 0 BitCount = 0 ID = 1280
  12.951546 1  500             Rx   d 7 36 01 00 00 00 04 6B   Length = 0 BitCount = 0 ID = 1280
  12.980560 1  500             Rx   d 2 36 6B   Length = 0 BitCount = 0 ID = 1280
  12.996520 1  500             Rx   d 7 36 01 00 00 00 04 6B   Length = 0 BitCount = 0 ID = 1280
  13.007647 1  500             Rx   d 2 36 6B   Length = 0 BitCount = 0 ID = 1280
  13.011651 1  500             Rx   d 7 36 01 00 00 00 04 6B   Length = 0 BitCount = 0 ID = 1280
  13.034406 1  500             Rx   d 2 36 6B   Length = 0 BitCount = 0 ID = 1280
  13.043407 1  500             Rx   d 7 36 01 00 00 00 04 6B   Length = 0 BitCount = 0 ID = 1280
  13.061506 1  400             Rx   d 2 36 6B   Length = 0 BitCount = 0 ID = 1024
  13.073616 1  400             Rx   d 7 36 01 00 00 00 04 6B   Length = 0 BitCount = 0 ID = 1024
  13.104861 1  200             Rx   d 2 36 6B   Length = 0 BitCount = 0 ID = 512
  13.104861 1  200             Rx   d 7 36 00 00 00 00 00 6B   Length = 0 BitCount = 0 ID = 512
  13.119845 1  300             Rx   d 2 36 6B   Length = 0 BitCount = 0 ID = 768
  13.119845 1  300             Rx   d 7 36 01 00 00 00 02 6B   Length = 0 BitCount = 0 ID = 768
  13.142533 1  100             Rx   d 2 36 6B   Length = 0 BitCount = 0 ID = 256
  13.150737 1  100             Rx   d 7 36 01 00 00 00 02 6B   Length = 0 BitCount = 0 ID = 256
  13.169353 1  100             Rx   d 2 36 6B   Length = 0 BitCount = 0 ID = 256
  13.181375 1  100             Rx   d 7 36 01 00 00 00 02 6B   Length = 0 BitCount = 0 ID = 256
  13.196370 1  200             Rx   d 2 36 6B   Length = 0 BitCount = 0 ID = 512
  13.213371 1  200             Rx   d 7 36 00 00 00 00 00 6B   Length = 0 BitCount = 0 ID = 512
  13.223376 1  300             Rx   d 2 36 6B   Length = 0 BitCount = 0 ID = 768
  13.229432 1  300             Rx   d 7 36 01 00 00 00 02 6B   Length = 0 BitCount = 0 ID = 768
  13.251117 1  400             Rx   d 2 36 6B   Length = 0 BitCount = 0 ID = 1024
  13.261329 1  400             Rx   d 7 36 01 00 00 00 04 6B   Length = 0 BitCount = 0 ID = 1024
  13.277307 1  500             Rx   d 2 36 6B   Length = 0 BitCount = 0 ID = 1280
  13.293255 1  500             Rx   d 7 36 01 00 00 00 04 6B   Length = 0 BitCount = 0 ID = 1280
  13.308256 1  500             Rx   d 2 36 6B   Length = 0 BitCount = 0 ID = 1280
  13.324393 1  500             Rx   d 7 36 01 00 00 00 04 6B   Length = 0 BitCount = 0 ID = 1280
  13.339396 1  500             Rx   d 2 36 6B   Length = 0 BitCount = 0 ID = 1280
  13.339396 1  500             Rx   d 7 36 01 00 00 00 04 6B   Length = 0 BitCount = 0 ID = 1280
  13.363039 1  500             Rx   d 2 36 6B   Length = 0 BitCount = 0 ID = 1280
  13.370402 1  500             Rx   d 7 36 01 00 00 00 04 6B   Length = 0 BitCount = 0 ID = 1280
  13.389438 1  400             Rx   d 2 36 6B   Length = 0 BitCount = 0 ID = 1024
  13.401973 1  400             Rx   d 7 36 01 00 00 00 04 6B   Length = 0 BitCount = 0 ID = 1024
  13.432617 1  200             Rx   d 2 36 6B   Length = 0 BitCount = 0 ID = 512
  13.432617 1  200             Rx   d 7 36 00 00 00 00 00 6B   Length = 0 BitCount = 0 ID = 512
  13.444023 1  300             Rx   d 2 36 6B   Length = 0 BitCount = 0 ID = 768
  13.448657 1  300             Rx   d 7 36 01 00 00 00 02 6B   Length = 0 BitCount = 0 ID = 768
  13.470551 1  100             Rx   d 2 36 6B   Length = 0 BitCount = 0 ID = 256
  13.478613 1  100             Rx   d 7 36 01 00 00 00 02 6B   Length = 0 BitCount = 0 ID = 256
  13.497619 1  100             Rx   d 2 36 6B   Length = 0 BitCount = 0 ID = 256
  13.509635 1  100             Rx   d 7 36 01 00 00 00 02 6B   Length = 0 BitCount = 0 ID = 256
  13.524490 1  200             Rx   d 2 36 6B   Length = 0 BitCount = 0 ID = 512
  13.541066 1  200             Rx   d 7 36 00 00 00 00 00 6B   Length = 0 BitCount = 0 ID = 512
  13.552128 1  300             Rx   d 2 36 6B   Length = 0 BitCount = 0 ID = 768
  13.556250 1  300             Rx   d 7 36 01 00 00 00 02 6B   Length = 0 BitCount = 0 ID = 768
  13.579247 1  400             Rx   d 2 36 6B   Length = 0 BitCount = 0 ID = 1024
  13.587247 1  400             Rx   d 7 36 01 00 00 00 04 6B   Length = 0 BitCount = 0 ID = 1024
  13.606247 1  500             Rx   d 2 36 6B   Length = 0 BitCount = 0 ID = 1280
  13.619246 1  500             Rx   d 7 36 01 00 00 00 04 6B   Length = 0 BitCount = 0 ID = 1280
End TriggerBlock
